! Created Sun May  9 21:37:32 2021
# hz S ri R 50
! 4 Port Network Data from SP1.SP block
! freq  reS11  imS11  reS12  imS12  reS13  imS13  reS14  imS14  
!       reS21  imS21  reS22  imS22  reS23  imS23  reS24  imS24  
!       reS31  imS31  reS32  imS32  reS33  imS33  reS34  imS34  
!       reS41  imS41  reS42  imS42  reS43  imS43  reS44  imS44  
!     
                 1       0.999994464     -0.00293214656      4.6493365e-07     0.000209438664     1.18870324e-06     0.000418876919     1.27643192e-06     0.000418876476
                    4.6493365e-07     0.000209438664        0.999997149      -0.0020943928     4.21069146e-07     0.000209438849      4.6493365e-07     0.000209438664
                   1.18870324e-06     0.000418876919     4.21069146e-07     0.000209438849        0.999995828     -0.00251326982     1.18870324e-06     0.000418876919
                   1.27643192e-06     0.000418876476      4.6493365e-07     0.000209438664     1.18870324e-06     0.000418876919        0.999994464     -0.00293214656

                11        0.99933025      -0.0322449281     5.62457765e-05      0.00230270801     0.000143801571      0.00460487194     0.000154400295      0.00460428286
                   5.62457765e-05      0.00230270801        0.999655016      -0.0230352819     5.09440471e-05      0.00230295432     5.62457765e-05      0.00230270801
                   0.000143801571      0.00460487194     5.09440471e-05      0.00230295432        0.999495283      -0.0276402866     0.000143801571      0.00460487194
                   0.000154400295      0.00460428286     5.62457765e-05      0.00230270801     0.000143801571      0.00460487194         0.99933025      -0.0322449281

                21       0.997559747      -0.0615142954     0.000204847348      0.00439039316     0.000523758054      0.00877700039     0.000562226732      0.00877290709
                   0.000204847348      0.00439039316        0.998742788      -0.0439609771     0.000185581593      0.00439210521     0.000204847348      0.00439039316
                   0.000523758054      0.00877700039     0.000185581593      0.00439210521        0.998160885       -0.052738899     0.000523758054      0.00877700039
                   0.000562226732      0.00877290709     0.000204847348      0.00439039316     0.000523758054      0.00877700039        0.997559747      -0.0615142954

                31       0.994684958      -0.0907008079     0.000445867826      0.00646742769      0.00114011825       0.0129226756      0.00122338199        0.012909537
                   0.000445867826      0.00646742769        0.997260815      -0.0648576699     0.000404087012       0.0064729262     0.000445867826      0.00646742769
                    0.00114011825       0.0129226756     0.000404087012       0.0064729262          0.9959937      -0.0777832985      0.00114011825       0.0129226756
                    0.00122338199        0.012909537     0.000445867826      0.00646742769      0.00114011825       0.0129226756        0.994684958      -0.0907008079

                41       0.990709139       -0.119765077      0.00077865432      0.00852876427      0.00199135371        0.017029347      0.00213563509       0.0169990438
                    0.00077865432      0.00852876427        0.995209656      -0.0857115584     0.000706058921      0.00854145659      0.00077865432      0.00852876427
                    0.00199135371        0.017029347     0.000706058921      0.00854145659        0.992995459       -0.102747701      0.00199135371        0.017029347
                    0.00213563509       0.0169990438      0.00077865432      0.00852876427      0.00199135371        0.017029347        0.990709139       -0.119765077

                51       0.985636802       -0.148667789      0.00120230297       0.0105693838      0.00307534582       0.0210845184      0.00329589978       0.0210264217
                    0.00120230297       0.0105693838         0.99259009       -0.106508851      0.00109094052       0.0105937426      0.00120230297       0.0105693838
                    0.00307534582       0.0210845184      0.00109094052       0.0105937426        0.989168558        -0.12760636      0.00307534582       0.0210845184
                    0.00329589978       0.0210264217      0.00120230297       0.0105693838      0.00307534582       0.0210845184        0.985636802       -0.148667789

                61       0.979473722       -0.177369733      0.00171565912       0.0125843044      0.00438938372       0.0250757654      0.00470023737        0.024976829
                    0.00171565912       0.0125843044        0.989403101       -0.127235769      0.00155801858       0.0126258396      0.00171565912       0.0125843044
                    0.00438938372       0.0250757654      0.00155801858       0.0126258396        0.984516056       -0.152333576      0.00438938372       0.0250757654
                    0.00470023737        0.024976829      0.00171565912       0.0125843044      0.00438938372       0.0250757654        0.979473722       -0.177369733

                71       0.972226936       -0.205831829       0.0023173175       0.0145685914      0.00593016162       0.0289907546      0.00634386049       0.0288356283
                     0.0023173175       0.0145685914         0.98564988       -0.147878549      0.00210642214       0.0146338146       0.0023173175       0.0145685914
                    0.00593016162       0.0289907546      0.00210642214       0.0146338146        0.979041677       -0.176903712      0.00593016162       0.0289907546
                    0.00634386049       0.0288356283       0.0023173175       0.0145685914      0.00593016162       0.0289907546        0.972226936       -0.205831829

                81       0.963904754       -0.234015148      0.00300562248       0.0165173659      0.00769377566       0.0328172632      0.00822113792       0.0325884285
                    0.00300562248       0.0165173659        0.981331818       -0.168423443      0.00273512088       0.0166137489      0.00300562248       0.0165173659
                    0.00769377566       0.0328172632      0.00273512088       0.0166137489        0.972749806       -0.201291202      0.00769377566       0.0328172632
                    0.00822113792       0.0325884285      0.00300562248       0.0165173659      0.00769377566       0.0328172632        0.963904754       -0.234015148

                91       0.954516762       -0.261880951      0.00377866848       0.0184258153      0.00967572044        0.036543199       0.0103256005       0.0362211269
                    0.00377866848       0.0184258153        0.976450502       -0.188856722      0.00344292322       0.0185617402      0.00377866848       0.0184258153
                    0.00967572044        0.036543199      0.00344292322       0.0185617402        0.965645487       -0.225470564      0.00967572044        0.036543199
                     0.0103256005       0.0362211269      0.00377866848       0.0184258153      0.00967572044        0.036543199        0.954516762       -0.261880951

               101       0.944073828       -0.289390713      0.00463430034       0.0202892025       0.0118708852       0.0401566221       0.0126499484       0.0397199523
                    0.00463430034       0.0202892025        0.971007706       -0.209164673      0.00422847404        0.020473906      0.00463430034       0.0202892025
                     0.0118708852       0.0401566221      0.00422847404        0.020473906        0.957734425       -0.249416412       0.0118708852       0.0401566221
                     0.0126499484       0.0397199523      0.00463430034       0.0202892025       0.0118708852       0.0401566221        0.944073828       -0.289390713

               111       0.932588114       -0.316506157      0.00557011389       0.0221028764       0.0142735498       0.0436457677         0.01518606        0.043071509
                    0.00557011389       0.0221028764        0.965005384       -0.229333601      0.00509025211       0.0223463865      0.00557011389       0.0221028764
                     0.0142735498       0.0436457677      0.00509025211       0.0223463865        0.949022979       -0.273103466       0.0142735498       0.0436457677
                       0.01518606        0.043071509      0.00557011389       0.0221028764       0.0142735498       0.0436457677        0.932588114       -0.316506157

               121       0.920073078       -0.343189285      0.00658345662       0.0238622819       0.0168773807       0.0469990699        0.017925002       0.0462628213
                    0.00658345662       0.0238622819        0.958445663       -0.249349825      0.00602656716       0.0241753475      0.00658345662       0.0238622819
                     0.0168773807       0.0469990699      0.00602656716       0.0241753475        0.939518163       -0.296506566       0.0168773807       0.0469990699
                      0.017925002       0.0462628213      0.00658345662       0.0238622819       0.0168773807       0.0469990699        0.920073078       -0.343189285

               131       0.906543482        -0.36940242      0.00767142847       0.0255629706       0.0196754265        0.050205187       0.0208570423       0.0492813796
                    0.00767142847       0.0255629706        0.951330832       -0.269199675      0.00703555653       0.0259569842      0.00767142847       0.0255629706
                     0.0196754265        0.050205187      0.00703555653       0.0259569842        0.929227641        -0.31960068       0.0196754265        0.050205187
                     0.0208570423       0.0492813796      0.00767142847       0.0255629706       0.0196754265        0.050205187        0.906543482        -0.36940242

               141       0.892015401       -0.395108236      0.00883088286       0.0272006119       0.0226601145       0.0532530286       0.0239716634       0.0521151871
                    0.00883088286       0.0272006119        0.943663336       -0.288869487      0.00811518157       0.0276875251      0.00883088286       0.0272006119
                     0.0226601145       0.0532530286      0.00811518157       0.0276875251        0.918159724       -0.342360917       0.0226601145       0.0532530286
                     0.0239716634       0.0521151871      0.00883088286       0.0272006119       0.0226601145       0.0532530286        0.892015401       -0.395108236

               151       0.876506226       -0.420269803       0.0100584278        0.028771004        0.025823247       0.0561317847         0.02725758       0.0547528066
                     0.0100584278        0.028771004        0.935445763         -0.3083456      0.00926322351       0.0293632362       0.0100584278        0.028771004
                      0.025823247       0.0561317847      0.00926322351       0.0293632362        0.906323366       -0.364762534        0.025823247       0.0561317847
                       0.02725758       0.0547528066       0.0100584278        0.028771004        0.025823247       0.0561317847        0.876506226       -0.420269803

               161       0.860034673       -0.444850625       0.0113504275       0.0302700857       0.0291559979       0.0588309555       0.0307027576       0.0571834098
                     0.0113504275       0.0302700857        0.926680834       -0.327614342       0.0104772791       0.0309804258       0.0113504275       0.0302700857
                     0.0291559979       0.0588309555       0.0104772791       0.0309804258         0.89372816       -0.386780951       0.0291559979       0.0588309555
                     0.0307027576       0.0571834098       0.0113504275       0.0302700857       0.0291559979       0.0588309555        0.860034673       -0.444850625

               171       0.842620784       -0.468814685       0.0127030037       0.0316939482       0.0326489107       0.0613403846       0.0342944345        0.059396826
                     0.0127030037       0.0316939482        0.917371392       -0.346662025       0.0117547556       0.0325354496       0.0127030037       0.0316939482
                     0.0326489107       0.0613403846       0.0117547556       0.0325354496        0.880384335       -0.408391755       0.0326489107       0.0613403846
                     0.0342944345        0.059396826       0.0127030037       0.0316939482       0.0326489107       0.0613403846        0.842620784       -0.468814685

               181       0.824285932       -0.492126491        0.014112038       0.0330388478       0.0362918969        0.063650293       0.0380191467       0.0613835914
                      0.014112038       0.0330388478        0.907520392       -0.365474931       0.0130928658       0.0340247166        0.014112038       0.0330388478
                     0.0362918969        0.063650293       0.0130928658       0.0340247166        0.866302745       -0.429570712       0.0362918969        0.063650293
                     0.0380191467       0.0613835914        0.014112038       0.0330388478       0.0362918969        0.063650293        0.824285932       -0.492126491

               191       0.805052821       -0.514751122       0.0155731744       0.0343012188       0.0400742354       0.0657513162       0.0418627562       0.0631350001
                     0.0155731744       0.0343012188        0.897130891       -0.384039298       0.0144886222        0.035444696       0.0155731744       0.0343012188
                     0.0400742354       0.0657513162       0.0144886222        0.035444696        0.851494871       -0.450293772       0.0400742354       0.0657513162
                     0.0418627562       0.0631350001       0.0155731744       0.0343012188       0.0400742354       0.0657513162        0.805052821       -0.514751122

               201       0.784945486       -0.536654278       0.0170818215       0.0354776865       0.0439845742       0.0676345429       0.0458104825       0.0646431541
                     0.0170818215       0.0354776865        0.886206032       -0.402341304       0.0159388313       0.0367919241       0.0170818215       0.0354776865
                     0.0439845742       0.0676345429       0.0159388313       0.0367919241        0.835972808       -0.470537075       0.0439845742       0.0676345429
                     0.0458104825       0.0646431541       0.0170818215       0.0354776865       0.0439845742       0.0676345429        0.784945486       -0.536654278

               211       0.763989291       -0.557802329       0.0186331561       0.0365650817       0.0480109324       0.0692915559       0.0498469381       0.0659010139
                     0.0186331561       0.0365650817        0.874749038       -0.420367046       0.0174400868       0.0380630128       0.0186331561       0.0365650817
                     0.0480109324       0.0692915559       0.0174400868       0.0380630128        0.819749263       -0.490276961       0.0480109324       0.0692915559
                     0.0498469381       0.0659010139       0.0186331561       0.0365650817       0.0480109324       0.0692915559        0.763989291       -0.557802329

               221       0.742210924       -0.578162373       0.0202221273       0.0375604549       0.0521407055       0.0707144763       0.0539561675       0.0669024491
                     0.0202221273       0.0375604549        0.862763197       -0.438102521       0.0189887637        0.039254659       0.0202221273       0.0375604549
                     0.0521407055       0.0707144763       0.0189887637        0.039254659        0.802837547       -0.509489965       0.0521407055       0.0707144763
                     0.0539561675       0.0669024491       0.0202221273       0.0375604549       0.0521407055       0.0707144763        0.742210924       -0.578162373

               231       0.719638391       -0.597702282       0.0218434603       0.0384610912       0.0563606718       0.0718960087       0.0581216908       0.0676422887
                     0.0218434603       0.0384610912        0.850251858       -0.455533595       0.0205810109       0.0403636549       0.0218434603       0.0384610912
                     0.0563606718       0.0718960087       0.0205810109       0.0403636549         0.78525157       -0.528152826       0.0563606718       0.0718960087
                     0.0581216908       0.0676422887       0.0218434603       0.0384610912       0.0563606718       0.0718960087        0.719638391       -0.597702282

               241       0.696301001       -0.616390762       0.0234916621       0.0392645261       0.0606570025         0.07282949       0.0623265515       0.0681163697
                     0.0234916621       0.0392645261        0.837218414       -0.472645979       0.0222127442       0.0413868996       0.0234916621       0.0392645261
                     0.0606570025         0.07282949       0.0222127442       0.0413868996         0.76700583       -0.546242483       0.0606570025         0.07282949
                     0.0623265515       0.0681163697       0.0234916621       0.0392645261       0.0606570025         0.07282949        0.696301001       -0.616390762

               251       0.672229362       -0.634197409       0.0251610268       0.0399685619       0.0650152741       0.0735089397        0.066553369        0.068321586
                     0.0251610268       0.0399685619        0.823666301       -0.489425196       0.0238796395       0.0423214123       0.0251610268       0.0399685619
                     0.0650152741       0.0735089397       0.0238796395       0.0423214123        0.748115412       -0.563736077       0.0650152741       0.0735089397
                      0.066553369        0.068321586       0.0251610268       0.0399685619       0.0650152741       0.0735089397        0.672229362       -0.634197409

               261       0.647455354       -0.651092764       0.0268456432       0.0405712843       0.0694204845       0.0739291134       0.0707843949       0.0682559349
                     0.0268456432       0.0405712843        0.809598986        -0.50585654       0.0255771254       0.0431643471       0.0268456432       0.0405712843
                     0.0694204845       0.0739291134       0.0255771254       0.0431643471        0.728595981        -0.58061094       0.0694204845       0.0739291134
                     0.0707843949       0.0682559349       0.0268456432       0.0405712843       0.0694204845       0.0739291134        0.647455354       -0.651092764

               271       0.622012122       -0.667048369       0.0285394017       0.0410710798       0.0738570723       0.0740855575       0.0750015758        0.067918562
                     0.0285394017       0.0410710798        0.795019967       -0.521925041       0.0273003764       0.0439130093       0.0285394017       0.0410710798
                     0.0738570723       0.0740855575       0.0273003764       0.0439130093        0.708463776       -0.596844594       0.0738570723       0.0740855575
                     0.0750015758        0.067918562       0.0285394017       0.0410710798       0.0738570723       0.0740855575        0.622012122       -0.667048369

               281       0.595934044       -0.682036827        0.030236004       0.0414666545       0.0783089417       0.0739746676       0.0791866191       0.0673098041
                      0.030236004       0.0414666545        0.779932765       -0.537615415       0.0290443058       0.0445648732        0.030236004       0.0414666545
                     0.0783089417       0.0739746676       0.0290443058       0.0445648732        0.687735607       -0.612414734       0.0783089417       0.0739746676
                     0.0791866191       0.0673098041        0.030236004       0.0414666545       0.0783089417       0.0739746676        0.595934044       -0.682036827

